! AWR Design Environment (17559) Sat May 24 15:58:22 2025
! Document = 'Schematic 1'
! nPorts: 4, nXvals: 100

# GHz S DB R 50
!Freq DBS11 AngS11 DBS12 AngS12 DBS13 AngS13 DBS14 AngS14 
!	DBS21 AngS21 DBS22 AngS22 DBS23 AngS23 DBS24 AngS24 
!	DBS31 AngS31 DBS32 AngS32 DBS33 AngS33 DBS34 AngS34 
!	DBS41 AngS41 DBS42 AngS42 DBS43 AngS43 DBS44 AngS44 
0.1 -6.0722044 174.0798 -5.9502407 1.5544828 -6.0287531 -6.0737675 -6.0321027 -8.953027 
	-5.9502407 1.5544828 -6.0623733 176.96773 -6.0336298 -4.6332283 -6.0369794 -7.5124878 
	-6.0287531 -6.0737675 -6.0336298 -4.6332283 -6.02745 176.95403 -5.9926892 0.15335816 
	-6.0321027 -8.953027 -6.0369794 -7.5124878 -5.9926892 0.15335816 -6.0207643 171.20021 
0.2 -6.2277538 168.18872 -5.7487403 2.8201271 -6.0532316 -12.140061 -6.0665911 -17.894151 
	-5.7487403 2.8201271 -6.1874835 174.01246 -6.0727372 -9.2557429 -6.0860967 -15.009833 
	-6.0532316 -12.140061 -6.0727372 -9.2557429 -6.0481322 173.90238 -5.9102341 0.23787999 
	-6.0665911 -17.894151 -6.0860967 -15.009833 -5.9102341 0.23787999 -6.0216263 162.43159 
0.3 -6.4894981 162.35746 -5.4414823 3.5714948 -6.0940786 -18.191023 -6.1239925 -26.811158 
	-5.4414823 3.5714948 -6.3952109 171.21426 -6.1379609 -13.856428 -6.1678748 -22.476562 
	-6.0940786 -18.191023 -6.1379609 -13.856428 -6.0830285 170.8398 -5.7769331 0.1896482 
	-6.1239925 -26.811158 -6.1678748 -22.476562 -5.7769331 0.1896482 -6.0242562 153.72481 
0.4 -6.8613394 156.62004 -5.0618095 3.6801548 -6.1513229 -24.218109 -6.2041458 -35.691285 
	-5.0618095 3.6801548 -6.6840441 168.65926 -6.2293216 -18.423433 -6.2821446 -29.89661 
	-6.1513229 -24.218109 -6.2293216 -18.423433 -6.132733 167.76199 -5.5985316 -0.046101346 
	-6.2041458 -35.691285 -6.2821446 -29.89661 -5.5985316 -0.046101346 -6.030323 145.10962 
0.5 -7.3490979 151.01589 -4.6430732 3.1118546 -6.2249209 -30.211903 -6.306748 -44.521107 
	-4.6430732 3.1118546 -7.0511667 166.4424 -6.3467638 -22.943982 -6.4285909 -37.253185 
	-6.2249209 -30.211903 -6.3467638 -22.943982 -6.1979929 164.66579 -5.3822711 -0.5119603 
	-6.306748 -44.521107 -6.4285909 -37.253185 -5.3822711 -0.5119603 -6.0419393 136.61441 
0.6 -7.9609663 145.59271 -4.2135328 1.9015686 -6.3146907 -36.162122 -6.4312938 -53.286587 
	-4.2135328 1.9015686 -7.4916456 164.66962 -6.4900871 -27.404337 -6.6066902 -44.528802 
	-6.3146907 -36.162122 -6.4900871 -27.404337 -6.2796398 161.54936 -5.1362536 -1.2368158 
	-6.4312938 -53.286587 -6.6066902 -44.528802 -5.1362536 -1.2368158 -6.061476 128.26578 
0.7 -8.7082536 140.4109 -3.7944592 0.12424696 -6.4202463 -42.057787 -6.5770174 -61.973307 
	-3.7944592 0.12424696 -7.9972325 163.45849 -6.6588804 -31.789966 -6.8156516 -51.705486 
	-6.4202463 -42.057787 -6.6588804 -31.789966 -6.3785172 158.41211 -4.8688116 -2.2357955 
	-6.5770174 -61.973307 -6.8156516 -51.705486 -4.8688116 -2.2357955 -6.0913704 120.08827 
0.8 -9.6065788 135.5509 -3.4003665 -2.128506 -6.5409459 -47.887566 -6.7428488 -70.566846 
	-3.4003665 -2.128506 -8.5547027 162.93581 -6.8524666 -36.085852 -7.0543694 -58.765132 
	-6.5409459 -47.887566 -6.8524666 -36.085852 -6.4954176 155.25451 -4.5879597 -3.5114472 
	-6.7428488 -70.566846 -7.0543694 -58.765132 -4.5879597 -3.5114472 -6.1339511 112.10404 
0.9 -10.677776 131.12668 -3.0401819 -4.7634211 -6.6758606 -53.640235 -6.9273903 -79.053264 
	-3.0401819 -4.7634211 -9.1437752 163.229 -7.0698688 -40.276936 -7.3213986 -65.689965 
	-6.6758606 -53.640235 -7.0698688 -40.276936 -6.6310348 152.0777 -4.3009751 -5.0557762 
	-6.9273903 -79.053264 -7.3213986 -65.689965 -4.3009751 -5.0557762 -6.1912959 104.3326 
1 -11.952923 127.31175 -2.718598 -7.6937186 -6.8237682 -59.305188 -7.1289205 -87.419638 
	-2.718598 -7.6937186 -9.7350207 164.44713 -7.3098014 -44.348604 -7.6149537 -72.463054 
	-6.8237682 -59.305188 -7.3098014 -44.348604 -6.785937 148.88311 -4.0141246 -6.8527262 
	-7.1289205 -87.419638 -7.6149537 -72.463054 -4.0141246 -6.8527262 -6.2651348 96.790696 
1.1 -13.477053 124.39319 -2.4372686 -10.842776 -6.9831747 -64.872939 -7.345423 -95.654569 
	-2.4372686 -10.842776 -10.288901 166.64773 -7.5706863 -48.287167 -7.9329346 -79.068797 
	-6.9831747 -64.872939 -7.5706863 -48.287167 -6.9605644 145.67196 -3.7325325 -8.8807372 
	-7.345423 -95.654569 -7.9329346 -79.068797 -3.7325325 -8.8807372 -6.3567993 89.492172 
1.2 -15.315736 122.8933 -2.1957544 -14.145219 -7.1523578 -70.335548 -7.5746392 -103.74861 
	-2.1957544 -14.145219 -10.758031 169.79123 -7.850692 -52.080265 -8.2729734 -85.493324 
	-7.1523578 -70.335548 -7.850692 -52.080265 -7.155246 142.4448 -3.4601659 -11.115104 
	-7.5746392 -103.74861 -8.2729734 -85.493324 -3.4601659 -11.115104 -6.4672157 82.44802 
1.3 -17.559134 123.86838 -1.9922312 -17.546668 -7.3294269 -75.686931 -7.8141358 -111.69455 
	-1.9922312 -17.546668 -11.094851 173.70013 -8.1477876 -55.717157 -8.6324965 -91.724781 
	-7.3294269 -75.686931 -8.1477876 -55.717157 -7.3702351 139.20118 -3.1999061 -13.529967 
	-7.8141358 -111.69455 -8.6324965 -91.724781 -3.1999061 -13.529967 -6.596932 75.666508 
1.4 -20.286055 129.68323 -1.8240083 -21.002854 -7.5123923 -80.923033 -8.0613811 -119.48762 
	-1.8240083 -21.002854 -11.264248 178.05549 -8.4598049 -59.188876 -9.0087936 -97.753464 
	-7.5123923 -80.923033 -8.4598049 -59.188876 -7.6057543 135.93931 -2.9536773 -16.099851 
	-8.0613811 -119.48762 -9.0087936 -97.753464 -2.9536773 -16.099851 -6.7461687 69.153422 
1.5 -23.245885 145.5329 -1.6879025 -24.478483 -7.6992351 -86.041857 -8.3138212 -127.12544 
	-1.6879025 -24.478483 -11.255496 -177.54354 -8.7844993 -62.488241 -9.3990854 -103.57182 
	-7.6992351 -86.041857 -8.7844993 -62.488241 -7.862046 132.65585 -2.7226023 -18.800761 
	-8.3138212 -127.12544 -9.3990854 -103.57182 -2.7226023 -18.800761 -6.9148799 62.912426 
1.6 -24.689329 175.39623 -1.5805048 -27.94604 -7.8879718 -91.043377 -8.5689499 -134.60793 
	-1.5805048 -27.94604 -11.085466 -173.47532 -9.1196052 -65.60976 -9.8005833 -109.17432 
	-7.8879718 -91.043377 -9.1196052 -65.60976 -8.1394218 129.34574 -2.5071653 -21.61087 
	-8.5689499 -134.60793 -9.8005833 -109.17432 -2.5071653 -21.61087 -7.102817 56.945494 
1.7 -23.022978 -157.22845 -1.4983678 -31.384628 -8.076708 -95.929351 -8.8243669 -141.93714 
	-1.4983678 -31.384628 -10.790671 -170.00624 -9.462878 -68.549436 -10.210537 -114.55723 
	-8.076708 -95.929351 -9.462878 -68.549436 -8.4383073 126.0021 -2.3073657 -24.510878 
	-8.8243669 -141.93714 -10.210537 -114.55723 -2.3073657 -24.510878 -7.309584 51.253405 
1.8 -20.4155 -143.79098 -1.4381343 -34.778895 -8.2636807 -100.70307 -9.0778239 -149.11691 
	-1.4381343 -34.778895 -10.414115 -167.26106 -9.8121236 -71.304532 -10.626267 -119.71837 
	-8.2636807 -100.70307 -9.8121236 -71.304532 -8.7592803 122.61611 -2.1228555 -27.484113 
	-9.0778239 -149.11691 -10.626267 -119.71837 -2.1228555 -27.484113 -7.5346805 45.836264 
1.9 -18.162491 -138.57597 -1.3966218 -38.118064 -8.447287 -105.3691 -9.3272556 -156.15258 
	-1.3966218 -38.118064 -9.9946956 -165.24782 -10.165211 -73.873301 -11.04518 -124.65678 
	-8.447287 -105.3691 -10.165211 -73.873301 -9.1030997 119.17689 -1.9530534 -30.516458 
	-9.3272556 -156.15258 -11.04518 -124.65678 -1.9530534 -30.516458 -7.7775287 40.694031 
2 -16.365717 -137.16189 -1.3708732 -41.395084 -8.6261001 -109.93294 -9.5707984 -163.0507 
	-1.3708732 -41.395084 -9.5622978 -163.90361 -10.520073 -76.254739 -11.464771 -129.3725 
	-8.6261001 -109.93294 -10.520073 -76.254739 -9.4707265 115.67127 -1.7972374 -33.59616 
	-9.5707984 -163.0507 -11.464771 -129.3725 -1.7972374 -33.59616 -8.0374811 35.827023 
2.1 -14.928697 -137.61063 -1.3581842 -44.605891 -8.7988752 -114.40082 -9.8067971 -169.8187 
	-1.3581842 -44.605891 -9.1373752 -163.13467 -10.874692 -78.44837 -11.882614 -133.86625 
	-8.7988752 -114.40082 -10.874692 -78.44837 -9.8633349 112.08352 -1.6546154 -36.713577 
	-9.8067971 -169.8187 -11.882614 -133.86625 -1.6546154 -36.713577 -8.3138093 31.236388 
2.2 -13.761606 -139.04946 -1.3561129 -47.748787 -8.964547 -118.77943 -10.033804 -176.46466 
	-1.3561129 -47.748787 -8.7326504 -162.84224 -11.22708 -80.454085 -12.296337 -138.13932 
	-8.964547 -118.77943 -11.22708 -80.454085 -10.282313 108.39487 -1.5243781 -39.860905 
	-10.033804 -176.46466 -12.296337 -138.13932 -1.5243781 -39.860905 -8.6056725 26.924522 
2.3 -12.799648 -141.04718 -1.3624768 -50.823917 -9.1222202 -123.07567 -10.250568 177.00297 
	-1.3624768 -50.823917 -8.3552694 -162.93553 -11.575244 -82.272055 -12.703592 -142.19342 
	-9.1222202 -123.07567 -11.575244 -82.272055 -10.72925 104.5829 -1.4057353 -43.031891 
	-10.250568 177.00297 -12.703592 -142.19342 -1.4057353 -43.031891 -8.9120648 22.895417 
2.4 -11.997329 -143.37241 -1.3753428 -53.832842 -9.271157 -127.29654 -10.456025 170.57556 
	-1.3753428 -53.832842 -8.0086635 -163.33674 -11.917159 -83.902715 -13.102027 -146.03062 
	-9.271157 -127.29654 -11.917159 -83.902715 -11.205905 100.62062 -1.2979407 -46.22158 
	-10.456025 170.57556 -13.102027 -146.03062 -1.2979407 -46.22158 -9.2317395 19.154917 
2.5 -11.322244 -145.89282 -1.3930108 -56.778187 -9.4107605 -131.44896 -10.649277 164.24442 
	-1.3930108 -56.778187 -7.6939303 -163.98174 -12.250727 -85.346842 -13.489243 -149.65346 
	-9.4107605 -131.44896 -12.250727 -85.346842 -11.714142 96.475348 -1.2003066 -49.426072 
	-10.649277 164.24442 -13.489243 -149.65346 -1.2003066 -49.426072 -9.5631109 15.710849 
2.6 -10.750784 -148.52917 -1.4139965 -59.663369 -9.5405582 -135.53968 -10.829579 158.00096 
	-1.4139965 -59.663369 -7.4107802 -164.81874 -12.573748 -86.60572 -13.862769 -153.06508 
	-9.5405582 -135.53968 -12.573748 -86.60572 -12.255821 92.107045 -1.1122122 -52.642317 
	-10.829579 158.00096 -13.862769 -153.06508 -1.1122122 -52.642317 -9.9041304 12.572982 
2.7 -10.26537 -151.23246 -1.4370113 -62.492375 -9.6601843 -139.57523 -10.996318 151.83675 
	-1.4370113 -62.492375 -7.1581559 -165.80651 -12.883893 -87.681389 -14.220027 -156.26941 
	-9.6601843 -139.57523 -12.883893 -87.681389 -12.832598 87.466324 -1.0331057 -55.867939 
	-10.996318 151.83675 -14.220027 -156.26941 -1.0331057 -55.867939 -10.252139 9.7527375 
2.8 -9.8526569 -153.97188 -1.4609439 -65.269592 -9.7693633 -143.56182 -11.148997 145.7436 
	-1.4609439 -65.269592 -6.934625 -166.91239 -13.178689 -88.576984 -14.558322 -159.27157 
	-9.7693633 -143.56182 -13.178689 -88.576984 -13.445593 82.491841 -0.96250426 -59.101086 
	-11.148997 145.7436 -14.558322 -159.27157 -0.96250426 -59.101086 -10.603702 7.2625697 
2.9 -9.5023658 -156.72798 -1.4848416 -67.999678 -9.8678941 -147.50535 -11.287215 139.71359 
	-1.4848416 -67.999678 -6.7386229 -168.11058 -13.455518 -89.297133 -14.874838 -162.0782 
	-9.8678941 -147.50535 -13.455518 -89.297133 -14.094825 77.107223 -0.89999053 -62.340312 
	-11.287215 139.71359 -14.874838 -162.0782 -0.89999053 -62.340312 -10.954427 5.1148765 
3 -9.2064861 -159.48864 -1.5078939 -70.687466 -9.9556355 -151.41141 -11.410657 133.73908 
	-1.5078939 -70.687466 -6.5685992 -169.38073 -13.711633 -89.848411 -15.166654 -164.69791 
	-9.9556355 -151.41141 -13.711633 -89.848411 -14.778287 71.217802 -0.84520853 -65.58447 
	-11.410657 133.73908 -15.166654 -164.69791 -0.84520853 -65.58447 -11.298809 3.3203263 
3.1 -8.9587334 -162.24663 -1.5294175 -73.337892 -10.032494 -155.28527 -11.519076 127.81275 
	-1.5294175 -73.337892 -6.4231043 -170.70673 -13.944202 -90.23979 -15.430785 -167.14177 
	-10.032494 -155.28527 -13.944202 -90.23979 -15.490447 64.70809 -0.79785853 -68.832644 
	-11.519076 127.81275 -15.430785 -167.14177 -0.79785853 -68.832644 -11.630111 1.885487 
3.2 -8.7541681 -164.99799 -1.5488424 -75.955944 -10.09841 -159.13188 -11.612282 121.92753 
	-1.5488424 -75.955944 -6.3008368 -172.0758 -14.150373 -90.483061 -15.664245 -169.42365 
	-10.09841 -159.13188 -14.150373 -90.483061 -16.219952 57.442288 -0.75769189 -72.084079 
	-11.612282 121.92753 -15.664245 -169.42365 -0.75769189 -72.084079 -11.94036 0.80974474 
3.3 -8.5889234 -167.74104 -1.5657009 -78.546632 -10.153353 -162.95594 -11.690132 116.07661 
	-1.5657009 -78.546632 -6.2006696 -173.47769 -14.327362 -90.593149 -15.864141 -171.5606 
	-10.153353 -162.95594 -14.327362 -90.593149 -16.946391 49.27254 -0.72450596 -75.338138 
	-11.690132 116.07661 -15.864141 -171.5606 -0.72450596 -75.338138 -12.220514 0.081683141 
3.4 -8.460011 -170.47565 -1.5796177 -81.114961 -10.197307 -166.76189 -11.752521 110.25343 
	-1.5796177 -81.114961 -6.1216609 -174.90413 -14.472567 -90.588271 -16.027781 -173.57295 
	-10.197307 -166.76189 -14.472567 -90.588271 -17.636493 40.063068 -0.69813949 -78.594263 
	-11.752521 110.25343 -16.027781 -173.57295 -0.69813949 -78.594263 -12.460881 -0.32460445 
3.5 -8.3651812 -173.20278 -1.5903018 -83.665927 -10.230269 -170.55397 -11.799371 104.45162 
	-1.5903018 -83.665927 -6.0630588 -176.34828 -14.583694 -90.48987 -16.152796 -175.48429 
	-10.230269 -170.55397 -14.583694 -90.48987 -18.241511 29.739898 -0.67846854 -81.851952 
	-11.799371 104.45162 -16.152796 -175.48429 -0.67846854 -81.851952 -12.651817 -0.45244812 
3.6 -8.3028235 -175.92411 -1.5975403 -86.204506 -10.252241 -174.33626 -11.830631 98.664945 
	-1.5975403 -86.204506 -6.0243017 -177.80438 -14.658882 -90.322294 -16.237272 -177.32109 
	-10.252241 -174.33626 -14.658882 -90.322294 -18.699751 18.366946 -0.66540319 -85.110738 
	-11.830631 98.664945 -16.237272 -177.32109 -0.66540319 -85.110738 -12.78468 -0.36370462 
3.7 -8.2718993 -178.64179 -1.601194 -88.73566 -10.263226 -178.11273 -11.846269 92.887313 
	-1.601194 -88.73566 -6.0050161 -179.26738 -14.696816 -90.112212 -16.279859 -179.11217 
	-10.263226 -178.11273 -14.696816 -90.112212 -18.949125 6.2186801 -0.65888492 -88.370174 
	-11.846269 92.887313 -16.279859 -179.11217 -0.65888492 -88.370174 -12.852895 -0.13703649 
3.8 -8.2718993 178.64179 -1.601194 -91.26434 -10.263226 178.11273 -11.846269 87.112687 
	-1.601194 -91.26434 -6.0050161 179.26738 -14.696816 -89.887788 -16.279859 179.11217 
	-10.263226 178.11273 -14.696816 -89.887788 -18.949125 -6.2186801 -0.65888492 -91.629826 
	-11.846269 87.112687 -16.279859 179.11217 -0.65888492 -91.629826 -12.852895 0.13703649 
3.9 -8.3028235 175.92411 -1.5975403 -93.795494 -10.252241 174.33626 -11.830631 81.335055 
	-1.5975403 -93.795494 -6.0243017 177.80438 -14.658882 -89.677706 -16.237272 177.32109 
	-10.252241 174.33626 -14.658882 -89.677706 -18.699751 -18.366946 -0.66540319 -94.889262 
	-11.830631 81.335055 -16.237272 177.32109 -0.66540319 -94.889262 -12.78468 0.36370462 
4 -8.3651812 173.20278 -1.5903018 -96.334073 -10.230269 170.55397 -11.799371 75.548383 
	-1.5903018 -96.334073 -6.0630588 176.34828 -14.583694 -89.51013 -16.152796 175.48429 
	-10.230269 170.55397 -14.583694 -89.51013 -18.241511 -29.739898 -0.67846854 -98.148048 
	-11.799371 75.548383 -16.152796 175.48429 -0.67846854 -98.148048 -12.651817 0.45244812 
4.1 -8.460011 170.47565 -1.5796177 -98.885039 -10.197307 166.76189 -11.752521 69.746566 
	-1.5796177 -98.885039 -6.1216609 174.90413 -14.472567 -89.411729 -16.027781 173.57295 
	-10.197307 166.76189 -14.472567 -89.411729 -17.636493 -40.063068 -0.69813949 -101.40574 
	-11.752521 69.746566 -16.027781 173.57295 -0.69813949 -101.40574 -12.460881 0.32460445 
4.2 -8.5889234 167.74104 -1.5657009 -101.45337 -10.153353 162.95594 -11.690132 63.923388 
	-1.5657009 -101.45337 -6.2006696 173.47769 -14.327362 -89.406851 -15.864141 171.5606 
	-10.153353 162.95594 -14.327362 -89.406851 -16.946391 -49.27254 -0.72450596 -104.66186 
	-11.690132 63.923388 -15.864141 171.5606 -0.72450596 -104.66186 -12.220514 -0.081683141 
4.3 -8.7541681 164.99799 -1.5488424 -104.04406 -10.09841 159.13188 -11.612282 58.072472 
	-1.5488424 -104.04406 -6.3008368 172.0758 -14.150373 -89.516939 -15.664245 169.42365 
	-10.09841 159.13188 -14.150373 -89.516939 -16.219952 -57.442288 -0.75769189 -107.91592 
	-11.612282 58.072472 -15.664245 169.42365 -0.75769189 -107.91592 -11.94036 -0.80974474 
4.4 -8.9587334 162.24663 -1.5294175 -106.66211 -10.032494 155.28527 -11.519076 52.187248 
	-1.5294175 -106.66211 -6.4231043 170.70673 -13.944202 -89.76021 -15.430785 167.14177 
	-10.032494 155.28527 -13.944202 -89.76021 -15.490447 -64.70809 -0.79785853 -111.16736 
	-11.519076 52.187248 -15.430785 167.14177 -0.79785853 -111.16736 -11.630111 -1.885487 
4.5 -9.2064861 159.48864 -1.5078939 -109.31253 -9.9556355 151.41141 -11.410657 46.260915 
	-1.5078939 -109.31253 -6.5685992 169.38073 -13.711633 -90.151589 -15.166654 164.69791 
	-9.9556355 151.41141 -13.711633 -90.151589 -14.778287 -71.217802 -0.84520853 -114.41553 
	-11.410657 46.260915 -15.166654 164.69791 -0.84520853 -114.41553 -11.298809 -3.3203263 
4.6 -9.5023658 156.72798 -1.4848416 -112.00032 -9.8678941 147.50535 -11.287215 40.286414 
	-1.4848416 -112.00032 -6.7386229 168.11058 -13.455518 -90.702867 -14.874838 162.0782 
	-9.8678941 147.50535 -13.455518 -90.702867 -14.094825 -77.107223 -0.89999053 -117.65969 
	-11.287215 40.286414 -14.874838 162.0782 -0.89999053 -117.65969 -10.954427 -5.1148765 
4.7 -9.8526569 153.97188 -1.4609439 -114.73041 -9.7693633 143.56182 -11.148997 34.256402 
	-1.4609439 -114.73041 -6.934625 166.91239 -13.178689 -91.423016 -14.558322 159.27157 
	-9.7693633 143.56182 -13.178689 -91.423016 -13.445593 -82.491841 -0.96250426 -120.89891 
	-11.148997 34.256402 -14.558322 159.27157 -0.96250426 -120.89891 -10.603702 -7.2625697 
4.8 -10.26537 151.23246 -1.4370113 -117.50762 -9.6601843 139.57523 -10.996318 28.163251 
	-1.4370113 -117.50762 -7.1581559 165.80651 -12.883893 -92.318611 -14.220027 156.26941 
	-9.6601843 139.57523 -12.883893 -92.318611 -12.832598 -87.466324 -1.0331057 -124.13206 
	-10.996318 28.163251 -14.220027 156.26941 -1.0331057 -124.13206 -10.252139 -9.7527375 
4.9 -10.750784 148.52917 -1.4139965 -120.33663 -9.5405582 135.53968 -10.829579 21.999038 
	-1.4139965 -120.33663 -7.4107802 164.81874 -12.573748 -93.39428 -13.862769 153.06508 
	-9.5405582 135.53968 -12.573748 -93.39428 -12.255821 -92.107045 -1.1122122 -127.35768 
	-10.829579 21.999038 -13.862769 153.06508 -1.1122122 -127.35768 -9.9041304 -12.572982 
5 -11.322244 145.89282 -1.3930108 -123.22181 -9.4107605 131.44896 -10.649277 15.755575 
	-1.3930108 -123.22181 -7.6939303 163.98174 -12.250727 -94.653158 -13.489243 149.65346 
	-9.4107605 131.44896 -12.250727 -94.653158 -11.714142 -96.475348 -1.2003066 -130.57393 
	-10.649277 15.755575 -13.489243 149.65346 -1.2003066 -130.57393 -9.5631109 -15.710849 
5.1 -11.997329 143.37241 -1.3753428 -126.16716 -9.271157 127.29654 -10.456025 9.4244371 
	-1.3753428 -126.16716 -8.0086635 163.33674 -11.917159 -96.097285 -13.102027 146.03062 
	-9.271157 127.29654 -11.917159 -96.097285 -11.205905 -100.62062 -1.2979407 -133.77842 
	-10.456025 9.4244371 -13.102027 146.03062 -1.2979407 -133.77842 -9.2317395 -19.154917 
5.2 -12.799648 141.04718 -1.3624768 -129.17608 -9.1222202 123.07567 -10.250568 2.9970272 
	-1.3624768 -129.17608 -8.3552694 162.93553 -11.575244 -97.727945 -12.703592 142.19342 
	-9.1222202 123.07567 -11.575244 -97.727945 -10.72925 -104.5829 -1.4057353 -136.96811 
	-10.250568 2.9970272 -12.703592 142.19342 -1.4057353 -136.96811 -8.9120648 -22.895417 
5.3 -13.761606 139.04946 -1.3561129 -132.25121 -8.964547 118.77943 -10.033804 -3.5353356 
	-1.3561129 -132.25121 -8.7326504 162.84224 -11.22708 -99.545915 -12.296337 138.13932 
	-8.964547 118.77943 -11.22708 -99.545915 -10.282313 -108.39487 -1.5243781 -140.1391 
	-10.033804 -3.5353356 -12.296337 138.13932 -1.5243781 -140.1391 -8.6056725 -26.924522 
5.4 -14.928697 137.61063 -1.3581842 -135.39411 -8.7988752 114.40082 -9.8067971 -10.181296 
	-1.3581842 -135.39411 -9.1373752 163.13467 -10.874692 -101.55163 -11.882614 133.86625 
	-8.7988752 114.40082 -10.874692 -101.55163 -9.8633349 -112.08352 -1.6546154 -143.28642 
	-9.8067971 -10.181296 -11.882614 133.86625 -1.6546154 -143.28642 -8.3138093 -31.236388 
5.5 -16.365717 137.16189 -1.3708732 -138.60492 -8.6261001 109.93294 -9.5707984 -16.949304 
	-1.3708732 -138.60492 -9.5622978 163.90361 -10.520073 -103.74526 -11.464771 129.3725 
	-8.6261001 109.93294 -10.520073 -103.74526 -9.4707265 -115.67127 -1.7972374 -146.40384 
	-9.5707984 -16.949304 -11.464771 129.3725 -1.7972374 -146.40384 -8.0374811 -35.827023 
