!Agilent Technologies,E8364C,MY43040861,A.09.42.22
!Agilent E8364C: A.09.42.22
!Date: Friday, August 08, 2025 15:08:16
!Correction: S11(Full 2 Port(1,2)) 
!S21(Full 2 Port(1,2)) 
!S12(Full 2 Port(1,2)) 
!S22(Full 2 Port(1,2)) 
!S2P File: Measurements: S11, S21, S12, S22:
# Hz S  RI   R 50
10000000 0.0031149297 -0.0034871928 0.098510087 -0.018441515 0.099070445 -0.02439658 0.0052421121 -0.0051598693
16243750 0.0044649635 0.0043364158 0.092327736 -0.034574687 0.091812782 -0.032245118 0.0029454762 -0.0046296879
22487500 0.0068763648 0.007416978 0.086849056 -0.044850953 0.086209252 -0.045674514 0.004128919 -0.004601202
28731250 0.010827689 0.0072351918 0.079184964 -0.057722922 0.076969907 -0.056304947 0.0013594698 -0.0067960504
34975000 0.012160413 0.0065584602 0.069967851 -0.066800699 0.068651892 -0.066879407 0.0022970515 -0.0048443805
41218750 0.015766978 0.0061492235 0.060010441 -0.075738274 0.059875865 -0.075663246 0.0027268587 -0.0058803367
47462500 0.015224213 0.0066175046 0.049288806 -0.083248101 0.050476938 -0.087764859 0.0046743555 -0.005005714
53706250 0.019238541 0.001025249 0.040530376 -0.089512646 0.036185637 -0.089475192 -4.9390446e-006 -0.0023449974
59950000 0.022273222 0.00462637 0.02703085 -0.094896153 0.024962736 -0.093612596 0.0018754866 -0.0064076111
66193750 0.024046697 0.0035368418 0.012502343 -0.094225064 0.0095171435 -0.095324755 0.0035710004 -0.0063669709
72437500 0.020703537 0.00096509454 -0.00082245568 -0.097995266 -0.0013955049 -0.097590946 0.0019110593 -0.0048455116
78681250 0.023728296 -0.0043952968 -0.012429829 -0.093700536 -0.014882406 -0.095717862 0.0022551636 -0.0046278415
84925000 0.023796359 -0.0071446286 -0.025929594 -0.092234805 -0.026465025 -0.092834584 0.0054146512 -0.0063663293
91168750 0.022671906 -0.0062858057 -0.038397077 -0.087642759 -0.039252218 -0.088715598 0.0033174006 -0.0061466852
97412500 0.02137976 -0.0093957726 -0.05208743 -0.081830651 -0.04977873 -0.07992316 0.0036759982 -0.007802364
103656250 0.023713009 -0.010747493 -0.061365642 -0.072866045 -0.060258128 -0.073950909 0.0041240361 -0.0052323006
109900000 0.019817406 -0.013770569 -0.070539527 -0.065399177 -0.071362413 -0.065095104 0.0035282134 -0.0050538206
116143750 0.01792674 -0.014755796 -0.078255162 -0.054669339 -0.079330698 -0.053515334 0.0059085232 -0.0039496855
122387500 0.017536175 -0.01220008 -0.083340563 -0.042036574 -0.084646598 -0.042626392 0.0081403647 -0.0023505646
128631250 0.014123226 -0.013544302 -0.089649469 -0.03174495 -0.087990254 -0.032566108 0.0077974848 -0.0043119695
134875000 0.013060085 -0.012190485 -0.093102001 -0.019213924 -0.092375226 -0.019914581 0.0081516225 -0.0070272824
141118750 0.0093013681 -0.012089259 -0.09378726 -0.0065962635 -0.094544046 -0.0068907812 0.0085283136 -0.0076527069
147362500 0.0097090146 -0.013227941 -0.094700582 0.0048326752 -0.095683627 0.0056480807 0.0089351917 -0.0072581535
153606250 0.008928366 -0.012249106 -0.093301177 0.018996729 -0.093484454 0.01748696 0.0064455918 -0.0099049844
159850000 0.0068850359 -0.011892756 -0.090322293 0.030926323 -0.089321747 0.030613938 0.0065903859 -0.010079101
166093750 0.0062996293 -0.010503133 -0.0855138 0.042652432 -0.083552375 0.041862149 0.0057960507 -0.010667942
172337500 0.0053441846 -0.0078615965 -0.078285329 0.05393938 -0.077003889 0.053426005 0.0072468836 -0.0086418586
178581250 0.00429891 -0.0052289437 -0.070900857 0.063756965 -0.070525572 0.063193612 0.0073207901 -0.0086961836
184825000 0.0046102065 -0.0039169812 -0.06212642 0.073331483 -0.061578814 0.071958289 0.0058701802 -0.010315671
191068750 0.0053836741 -0.0029493929 -0.051580973 0.080060326 -0.050824795 0.080561921 0.0069930241 -0.0078678923
197312500 0.0079716183 -0.0016337349 -0.039988663 0.087020613 -0.039829399 0.086346656 0.0049603437 -0.010297233
203556250 0.0078549422 0.0016099284 -0.0269394 0.090652235 -0.0280737 0.090414725 0.0033982263 -0.0088946
209800000 0.010019208 0.0033370785 -0.014632543 0.093281478 -0.013862158 0.0943221 0.0025086163 -0.0098529998
216043750 0.011013687 0.0035255542 -0.0018357061 0.093916573 -0.0021590986 0.094305053 0.0030356175 -0.0098877531
222287500 0.013691296 0.0065480769 0.010657992 0.09405186 0.010560083 0.093855165 0.0024327403 -0.0067618648
228531250 0.015328953 0.0049810344 0.023305815 0.092091046 0.023588801 0.09066654 0.003768173 -0.0081771165
234775000 0.016458336 0.0047260206 0.034139279 0.08804325 0.035233293 0.087083459 0.0032419614 -0.0058662309
241018750 0.020187538 0.0063744718 0.04648583 0.082191952 0.045923345 0.081699237 0.0019836803 -0.0057151518
247262500 0.020093331 0.0058854716 0.056511924 0.075250499 0.056296505 0.074836314 0.0024848632 -0.0046950988
253506250 0.023435259 0.00358161 0.065757714 0.066651031 0.066368133 0.065951616 0.0038858997 -0.0058840392
259750000 0.024343535 0.003184126 0.074640594 0.057106368 0.074059911 0.055910546 0.0016563938 -0.0070192334
265993750 0.025541328 -0.00021255083 0.081727564 0.047007624 0.080997936 0.046672102 0.0021762582 -0.0081427107
272237500 0.0278921 4.8679784e-005 0.086488217 0.035162546 0.087293483 0.034752451 0.001309531 -0.0082720546
278481250 0.028526375 -0.0034097829 0.090535395 0.02348643 0.090438068 0.022988468 0.00091095729 -0.0083575882
284725000 0.028683549 -0.0066010901 0.092180409 0.010865187 0.092290975 0.01063358 0.00077152177 -0.009308706
290968750 0.02979718 -0.0085657174 0.093690261 -0.0023956897 0.093371034 -0.0012213085 -0.00019313286 -0.0079133613
297212500 0.029349765 -0.009057533 0.093836978 -0.014192523 0.092527404 -0.014571621 -0.0012168975 -0.0087288907
303456250 0.029557183 -0.013239407 0.089259699 -0.026596362 0.089493915 -0.026948931 -0.00095421943 -0.008226472
309700000 0.029118378 -0.01551672 0.086637691 -0.038067076 0.085732356 -0.038500473 -0.001446572 -0.0089386767
315943750 0.027866092 -0.018896602 0.080078505 -0.049486421 0.079736285 -0.049750011 -0.0013733145 -0.0082630105
322187500 0.026397329 -0.019546058 0.072402142 -0.059528567 0.072216518 -0.060064223 -0.0006083491 -0.01000677
328431250 0.024786685 -0.022148425 0.064526722 -0.069332808 0.063496828 -0.069353104 -0.00061893574 -0.0083664944
334675000 0.022344416 -0.023519712 0.053969383 -0.07667245 0.053389911 -0.076758444 -0.0018392885 -0.0080461046
340918750 0.019955693 -0.024074998 0.043022595 -0.083213031 0.042537007 -0.083114378 -0.0012972151 -0.0074018515
347162500 0.01816879 -0.02550037 0.030806517 -0.087402366 0.030976735 -0.088135555 -0.0013947817 -0.0067543513
353406250 0.014719856 -0.025377579 0.018323725 -0.091542423 0.019553419 -0.091420054 -0.001832801 -0.0056701293
359650000 0.012164618 -0.025254406 0.0065446966 -0.092870817 0.0065935543 -0.092138603 -0.0017472509 -0.0044488055
365893750 0.0092700031 -0.024134077 -0.0055514765 -0.092746355 -0.0061763907 -0.092694357 -0.0012538737 -0.0021438913
372137500 0.0074344175 -0.023184028 -0.018852295 -0.090992428 -0.019153515 -0.091353849 -0.0012893624 -0.0019483769
378381250 0.0044987462 -0.021437259 -0.03044554 -0.087596081 -0.030576224 -0.087590583 0.00024471458 -0.00025730926
384625000 0.0015872807 -0.02073101 -0.041792307 -0.082947783 -0.041543357 -0.082864523 0.0023811357 -0.00066838326
390868750 -0.00034755195 -0.018866435 -0.052785695 -0.076207548 -0.052528813 -0.076972909 0.00090288877 0.00044904527
397112500 -0.0015719625 -0.017003993 -0.062714458 -0.068764582 -0.062672175 -0.068855606 0.0020835914 -0.00070298434
403356250 -0.0032074032 -0.014975725 -0.071088247 -0.060066693 -0.070846274 -0.059458807 0.00064217707 -0.00016445569
409600000 -0.0048680371 -0.011338145 -0.07866437 -0.049742918 -0.078699917 -0.04934109 0.00023703593 0.0011737627
415843750 -0.0058633517 -0.0090306727 -0.084273897 -0.038435031 -0.084663518 -0.03900164 0.00066488737 0.0013946068
422087500 -0.0057755634 -0.0067369817 -0.089317404 -0.027236909 -0.088807136 -0.026936403 3.6733654e-005 0.0021641243
428331250 -0.0066829394 -0.0036611077 -0.091254942 -0.01467678 -0.091794245 -0.014807624 0.00077930436 0.0031861719
434575000 -0.0055944785 -0.00089280983 -0.093303882 -0.0028992121 -0.092703067 -0.0022420529 -0.0012422523 0.002301798
440818750 -0.0050587617 0.0018744332 -0.092731662 0.010479326 -0.092447534 0.0097431736 0.00026157303 0.0032065404
447062500 -0.0040874975 0.0036411888 -0.089780971 0.022934789 -0.089459293 0.023081111 -0.00038215582 0.0029487095
453306250 -0.0014863427 0.0059775081 -0.086502224 0.033976946 -0.086458415 0.034549702 0.00024283699 0.0031900352
459550000 0.00012870059 0.007091675 -0.080812857 0.045522988 -0.080854483 0.045249559 -0.00042195889 0.0042424314
465793750 0.0022003856 0.0084753465 -0.074043401 0.055986673 -0.07335449 0.056194734 -0.00052288291 0.0047686649
472037500 0.0044202497 0.0095194308 -0.065793425 0.065343142 -0.065831833 0.065468438 0.00018065576 0.0036925413
478281250 0.0070981057 0.010735985 -0.056597844 0.073163159 -0.056431644 0.073180377 0.00018832926 0.0046638064
484525000 0.0085753743 0.011105963 -0.045782413 0.080838315 -0.046028018 0.080472849 1.8804672e-005 0.0065992335
490768750 0.0099671353 0.01112765 -0.034677181 0.085961163 -0.034575488 0.085514925 0.00023085467 0.0063597648
497012500 0.012281995 0.010841434 -0.022393549 0.089319184 -0.022939971 0.089446463 0.0013133243 0.0064796451
503256250 0.014107742 0.01016931 -0.010500377 0.092315167 -0.010172713 0.091210507 0.0017805545 0.0082108993
509500000 0.016216941 0.0094554666 0.0016319151 0.09260828 0.0019147779 0.092016086 0.0041856067 0.0082670636
515743750 0.017904641 0.0077902591 0.013784991 0.090883836 0.014354047 0.091505468 0.003232538 0.0091761015
521987500 0.018470777 0.0063406522 0.026330577 0.088688895 0.026220467 0.087813914 0.0041421438 0.00852428
528231250 0.019753421 0.005382895 0.038314648 0.084413052 0.038089093 0.084067121 0.004442337 0.0082628103
534475000 0.019426869 0.0033667828 0.04919029 0.078831688 0.049105827 0.079148918 0.0042486237 0.0085407775
540718750 0.019058168 0.001822076 0.059432514 0.070985541 0.05893673 0.071394429 0.0041841068 0.0091803866
546962500 0.018371044 0.00095946086 0.067631103 0.062853992 0.067393795 0.062601052 0.0050809751 0.0094617512
553206250 0.018338785 -0.00074527465 0.075721473 0.052782521 0.075064242 0.05272425 0.004402366 0.0099505996
559450000 0.015808182 -0.0023470251 0.082104124 0.041850656 0.08220572 0.041780483 0.0044454751 0.0097628469
565693750 0.014754154 -0.0033804502 0.086817674 0.031074304 0.086306967 0.030560307 0.0049988478 0.0094660949
571937500 0.01319685 -0.0044295425 0.090173312 0.018573809 0.090079717 0.019321987 0.0051047406 0.0098763844
578181250 0.010879027 -0.0045811785 0.092013039 0.0069190776 0.092106871 0.0065704454 0.0055869729 0.010157955
584425000 0.008940517 -0.0042153988 0.092021391 -0.0060855453 0.092017755 -0.0060747671 0.0053561907 0.010343247
590668750 0.0071890517 -0.0037617711 0.090868898 -0.017562466 0.089527771 -0.017446114 0.0050135786 0.010130416
596912500 0.005475665 -0.0031991606 0.086903565 -0.029579442 0.086657532 -0.030332532 0.0053199166 0.0097607151
603156250 0.0037513212 -0.0015745462 0.081973344 -0.041289769 0.08245156 -0.041149743 0.0052893814 0.010068364
609400000 0.0020747778 -0.00078323518 0.076178685 -0.051574551 0.076266825 -0.052040104 0.00553317 0.009697983
615643750 0.0011294611 0.0020025927 0.067857474 -0.061554011 0.068133324 -0.061911382 0.0063724704 0.010468189
621887500 0.00049927697 0.0035236785 0.059366077 -0.07046669 0.058990356 -0.070583723 0.0063907788 0.0095892185
628131250 0.00013846121 0.0065184017 0.049168229 -0.077722639 0.04913884 -0.077176288 0.0072872047 0.0099545866
634375000 -0.00052685395 0.0089648198 0.038101446 -0.083282433 0.037841283 -0.083337508 0.0077448613 0.010014747
640618750 0.00062211923 0.011843117 0.02639447 -0.087918088 0.026910231 -0.08778698 0.0084618907 0.0093989549
646862500 0.00025211915 0.01480537 0.015007908 -0.090567201 0.015094226 -0.090059549 0.0087662684 0.00948695
653106250 0.0013998852 0.017939964 0.0026208793 -0.092272051 0.0024969247 -0.091520011 0.0091905612 0.0094117317
659350000 0.0038400278 0.020808656 -0.0095582679 -0.091435 -0.0097626681 -0.091124728 0.010145901 0.0089626834
665593750 0.0064921449 0.022827158 -0.022397568 -0.088483408 -0.021956483 -0.0890017 0.0095878728 0.0084731374
671837500 0.0085537611 0.025712591 -0.034015376 -0.085490644 -0.033554289 -0.085047126 0.0097809443 0.0085062683
678081250 0.011985398 0.026949996 -0.044729762 -0.079809353 -0.044784408 -0.079759285 0.0097539332 0.0084287841
684325000 0.015303364 0.028398432 -0.055267397 -0.073676921 -0.054619972 -0.072548397 0.0094462326 0.0085055772
690568750 0.018297015 0.028335635 -0.064079501 -0.064546809 -0.064205885 -0.064836249 0.0090707615 0.0078989174
696812500 0.022062864 0.028812174 -0.072343603 -0.05591784 -0.072531164 -0.055265516 0.0093298126 0.007636243
703056250 0.026898634 0.028182738 -0.079527833 -0.045382079 -0.079371221 -0.045647588 0.0087331571 0.0078481948
709300000 0.030143647 0.026625229 -0.08499898 -0.034492537 -0.084951803 -0.03482198 0.0090436852 0.0076481318
715543750 0.033469342 0.025444489 -0.088304557 -0.022729598 -0.088709101 -0.022737641 0.0085956715 0.0075501781
721787500 0.036650863 0.023271089 -0.090385988 -0.010188918 -0.090282001 -0.010563877 0.0081677875 0.0084190089
728031250 0.039960776 0.020101663 -0.091216169 0.001212118 -0.091244206 0.0013061261 0.0088387243 0.0076945522
734275000 0.042355042 0.017072186 -0.090197518 0.013648408 -0.090243123 0.013551415 0.00820853 0.0078326194
740518750 0.04401397 0.013628237 -0.08794076 0.025795702 -0.086889192 0.026164001 0.0078166295 0.0071447105
746762500 0.046093844 0.01087234 -0.083464861 0.03732428 -0.083625048 0.037456278 0.0070131128 0.0071391612
753006250 0.046417575 0.0054854238 -0.078075238 0.04797443 -0.07832133 0.047889993 0.0080234427 0.0067427056
759250000 0.047269709 0.0021773477 -0.070667848 0.058486987 -0.070627064 0.05751656 0.0070664734 0.0063652666
765493750 0.046266764 -0.0025505053 -0.062417798 0.066806927 -0.062232267 0.067266122 0.0086406954 0.0056190845
771737500 0.046252731 -0.005545204 -0.053495381 0.074556209 -0.052732274 0.074980579 0.0081281401 0.0049361233
777981250 0.045069158 -0.0099994307 -0.042241912 0.080870993 -0.041993693 0.081186444 0.0079234354 0.0042495145
784225000 0.042447541 -0.013105232 -0.030977547 0.085570708 -0.030492578 0.085852429 0.0077672498 0.0034578829
790468750 0.039848503 -0.016130416 -0.018952021 0.089598835 -0.018694447 0.088917822 0.0076977573 0.002831629
796712500 0.037056714 -0.018548565 -0.0066240956 0.091261931 -0.0071474793 0.091164954 0.0076890853 0.0028278623
802956250 0.033042457 -0.020735716 0.0054128831 0.091190413 0.0056749331 0.090671524 0.0066355597 0.0025284432
809200000 0.029788744 -0.021665949 0.01772544 0.089759886 0.017223323 0.08985842 0.0069284989 0.0014711005
815443750 0.026508527 -0.022167634 0.029607512 0.086280651 0.029733479 0.086762518 0.0061361734 0.001907322
821687500 0.023044582 -0.021823619 0.040988054 0.082143523 0.040508546 0.081406049 0.0060177608 0.00126076
827931250 0.02001752 -0.021584474 0.051554564 0.075469434 0.051328991 0.075435691 0.0062131016 0.00061178469
834175000 0.016300511 -0.020008815 0.060927175 0.067481034 0.060841486 0.067492969 0.0055076289 0.0006109128
840418750 0.013686268 -0.017651765 0.069317386 0.059074674 0.069028035 0.058964986 0.0048832903 0.0011387832
846662500 0.012010117 -0.014574881 0.076624528 0.04913383 0.076772705 0.048768345 0.0044271927 0.0015615787
852906250 0.0093921311 -0.012460804 0.082395427 0.038630318 0.082422905 0.038129184 0.003637027 0.0010752493
859150000 0.0088901417 -0.0097375996 0.086434141 0.026374254 0.08717712 0.026826315 0.0033101207 0.00057251955
865393750 0.0091309631 -0.0070115617 0.089141324 0.014891176 0.089256763 0.014289596 0.0024825709 0.00084767322
871637500 0.0093583157 -0.0033897245 0.090729475 0.0026322082 0.090356484 0.0024720933 0.0020538655 0.0013436778
877881250 0.010511317 0.00010867272 0.090770528 -0.010144093 0.089818291 -0.009421031 0.0021914181 0.0011123683
884125000 0.013410288 0.0031688428 0.088153988 -0.021645509 0.087921791 -0.021728439 0.0014676749 0.001908232
890368750 0.015772713 0.005210747 0.084521361 -0.032743026 0.084381886 -0.032875843 0.002142339 0.0013201543
896612500 0.018821761 0.0076751849 0.079399541 -0.043991722 0.079199374 -0.043852594 0.0007714727 0.0010813316
902856250 0.021644814 0.008538154 0.07236509 -0.054254092 0.0725879 -0.054376651 0.0014204709 0.00021271147
909100000 0.026695793 0.009006355 0.064864852 -0.06393569 0.064712122 -0.063693948 0.00079117971 -5.1850351e-005
915343750 0.030659925 0.010040425 0.055838466 -0.071696855 0.055126004 -0.071542569 0.00066275755 -0.00018425513
921587500 0.034883413 0.0087545868 0.045427181 -0.077898405 0.045746088 -0.078416698 0.00063531206 -0.00020160209
927831250 0.039493769 0.0070031867 0.034370754 -0.083787724 0.034091014 -0.083532028 -0.00032598423 -0.00089788623
934075000 0.04337427 0.0046290238 0.023594644 -0.087402768 0.022689121 -0.087502912 -0.00045628985 -0.00071359379
940318750 0.047689345 0.0013442653 0.011299353 -0.089522824 0.010465223 -0.089415923 -0.00060035131 -0.0005019987
946562500 0.05059395 -0.0024912315 -0.0015865085 -0.090153255 -0.0012203043 -0.090348244 -0.001089529 -0.00094615057
952806250 0.053662244 -0.0063100648 -0.013076841 -0.089592107 -0.013414989 -0.089585133 -0.00084903341 -0.0010664399
959050000 0.055837661 -0.011293452 -0.025065089 -0.086977944 -0.024931397 -0.086731434 -0.0013691332 -0.00059266033
965293750 0.05749125 -0.017050492 -0.036657572 -0.082273081 -0.036622748 -0.082378507 -0.0013361766 -0.00083165854
971537500 0.057724267 -0.023034202 -0.047057614 -0.076783359 -0.047144003 -0.076504506 -0.0022732052 -0.0012264061
977781250 0.05746422 -0.027961506 -0.057072982 -0.069835439 -0.057078604 -0.069289073 -0.001946786 -0.00044946623
984025000 0.056035429 -0.034821548 -0.065651014 -0.061536472 -0.0659988 -0.0612051 -0.0028014334 -0.0015747494
990268750 0.054096334 -0.040397316 -0.0740586 -0.052289311 -0.073684834 -0.051671401 -0.0027988718 -0.00048387621
996512500 0.050819125 -0.04580202 -0.080382667 -0.041750614 -0.07941249 -0.041983016 -0.0034073354 -0.0010933477
1002756250 0.046209883 -0.050513852 -0.084126271 -0.030177142 -0.084816575 -0.030537147 -0.003551414 0.0007729099
1009000000 0.041722376 -0.054126136 -0.087812185 -0.019183161 -0.088278599 -0.018727558 -0.003796469 0.00072815537
1015243750 0.037005279 -0.057068028 -0.089969076 -0.0075195925 -0.089299858 -0.0072340746 -0.003877756 0.00093606167
1021487500 0.030414453 -0.059968978 -0.089870967 0.0048714434 -0.089564636 0.0049993326 -0.0034237597 0.0015444636
1027731250 0.025018569 -0.061158568 -0.088229612 0.017372331 -0.088173561 0.016610894 -0.003512925 0.0018466518
1033975000 0.018356755 -0.06203587 -0.08572688 0.028601941 -0.084808238 0.028201062 -0.0028718079 0.0029334759
1040218750 0.011931824 -0.061393831 -0.081109941 0.039595913 -0.081152625 0.039838698 -0.0031302636 0.0024474426
1046462500 0.0060282676 -0.059891872 -0.075056583 0.049829587 -0.074356869 0.050075684 -0.0031232056 0.0028843081
1052706250 0.00055141828 -0.057136215 -0.067044124 0.059550866 -0.067545928 0.059807137 -0.0029899317 0.0028731842
1058950000 -0.0046392279 -0.053958852 -0.058865227 0.067873538 -0.058330297 0.068542071 -0.0036283964 0.0031494084
1065193750 -0.0096798986 -0.049865846 -0.049193718 0.07558544 -0.049133282 0.075105533 -0.0034109079 0.0037275995
1071437500 -0.013340871 -0.044155799 -0.0381319 0.081176154 -0.038754486 0.081584118 -0.0029072447 0.0035266827
1077681250 -0.015956692 -0.039754502 -0.027292287 0.086003922 -0.02731728 0.085519582 -0.0037802237 0.0040681022
1083925000 -0.018158806 -0.034003604 -0.015212577 0.088567629 -0.015395094 0.088300928 -0.0031701436 0.0046671089
1090168750 -0.019044418 -0.027843311 -0.0031541984 0.090082809 -0.0034057952 0.089507498 -0.0034909185 0.0047954451
1096412500 -0.019820297 -0.021654012 0.0083957063 0.090222046 0.0087261321 0.089402288 -0.0034095021 0.0051948861
